Circuit: * \\khensu\Home02\robekeya\My Documents\School\ECE 421\Project\Spice\CB-Isolation-Amp.asc

Direct Newton iteration for .op point succeeded.
Semiconductor Device Operating Points:
                        --- Bipolar Transistors ---
Name:       q1
Model:    2n3904
Ib:       1.52e-06
Ic:       4.63e-04
Vbe:      6.35e-01
Vbc:     -1.26e+00
Vce:      1.89e+00
BetaDC:   3.03e+02
Gm:       1.79e-02
Rpi:      1.70e+04
Rx:       2.00e+01
Ro:       2.19e+05
Cbe:      1.86e-11
Cbc:      2.89e-12
Cjs:      0.00e+00
BetaAC:   3.03e+02
Cbx:      0.00e+00
Ft:       1.32e+08



Date: Wed Nov 20 16:34:54 2019
Total elapsed time: 0.174 seconds.

tnom = 27
temp = 27
method = trap
totiter = 7
traniter = 0
tranpoints = 0
accept = 0
rejected = 0
matrix size = 14
fillins = 3
solver = Normal
Matrix Compiler1: 782 bytes object code size
Matrix Compiler2: 1.07 KB object code size
